
T0770 000:712 SEGGER J-Link V4.15n (beta) Log File (0001ms, 0707ms total)
T0770 000:712 DLL Compiled: Jun 18 2010 19:55:09 (0001ms, 0707ms total)
T0770 000:712 Logging started @ 2013-06-14 09:30 (0001ms, 0707ms total)
T0770 000:713 JLINK_SetWarnOutHandler(...) (0000ms, 0708ms total)
T0770 000:713 JLINK_OpenEx(...)
Firmware: J-Link ARM V8 compiled Dec  6 2011 18:57:44
Hardware: V8.00
S/N: 68000019
Feature(s): RDI, FlashDL, FlashBP, JFlash, GDBFull  returns O.K. (0156ms, 0708ms total)
T0770 000:869 JLINK_SetErrorOutHandler(...) (0000ms, 0864ms total)
T0770 000:871 JLINK_ExecCommand("ProjectFile = "C:\Users\Administrator\Desktop\DMP Test\DMp\Project\JLinkSettings.ini"", ...)  returns 0x00 (0000ms, 0864ms total)
T0770 000:872 JLINK_ExecCommand("DisableConnectionTimeout", ...)  returns 0x00 (0000ms, 0864ms total)
T0770 000:875 JLINK_TIF_Select(JLINKARM_TIF_JTAG)  returns 0x00 (0000ms, 0864ms total)
T0770 000:875 JLINK_SetSpeed(3000) (0001ms, 0864ms total)
T0770 000:876 JLINK_GetHardwareVersion()  returns 0x13880 (0000ms, 0865ms total)
T0770 000:876 JLINK_GetDLLVersion()  returns 41514 (0000ms, 0865ms total)
T0770 000:876 JLINK_GetFirmwareString(...) (0000ms, 0865ms total)
T0770 000:877 JLINK_GetDLLVersion()  returns 41514 (0000ms, 0865ms total)
T0770 000:877 JLINK_GetCompileDateTime() (0000ms, 0865ms total)
T0770 000:877 JLINK_GetFirmwareString(...) (0000ms, 0865ms total)
T0770 000:877 JLINK_GetHardwareVersion()  returns 0x13880 (0000ms, 0865ms total)
T0770 000:877 JLINK_Reset() >0x2F8 JTAG>TotalIRLen = 9, IRPrint = 0x0011 >0x30 JTAG> >0x210 JTAG> >0x118 JTAG> >0xD8 JTAG> >0x198 JTAG> >0x38 JTAG> >0x118 JTAG> >0xD8 JTAG> >0x2F0 JTAG> >0x2F0 JTAG> >0x198 JTAG> >0x198 JTAG>Found Cortex-M3 r1p1, Little endian. >0xD8 JTAG> >0x240 JTAG> >0x198 JTAG> >0x198 JTAG>TPIU fitted. >0x198 JTAG>ETM fitted. >0x198 JTAG>  FPUnit: 6 code (BP) slots and 2 literal slots >0x198 JTAG> >0x250 JTAG> >0x240 JTAG> >0x280 JTAG> >0x198 JTAG> >0x198 JTAG> >0x240 JTAG>
 >0x240 JTAG> >0x198 JTAG> >0x198 JTAG> >0x17A8 JTAG> >0x240 JTAG> >0x198 JTAG> >0x17A8 JTAG> >0x198 JTAG> -- CPU_WriteMem(4 bytes @ 0xE000EDFC) -- CPU_WriteMem(4 bytes @ 0xE0001028) -- CPU_WriteMem(4 bytes @ 0xE0001038) -- CPU_WriteMem(4 bytes @ 0xE0001048) -- CPU_WriteMem(4 bytes @ 0xE0001058) (0100ms, 0865ms total)
T0770 000:977 JLINK_GetIdData(...) ScanLen=9 NumDevices=2 aId[0]=0x3BA00477 aIrRead[0]=0 aScanLen[0]=0 aScanRead[0]=0 (0000ms, 0965ms total)
T0770 000:977 JLINK_JTAG_GetDeviceID(DeviceIndex = 0)  returns 0x3BA00477 (0000ms, 0965ms total)
T0770 000:977 JLINK_JTAG_GetDeviceInfo(DeviceIndex = 0)  returns 0x00 (0000ms, 0965ms total)
T0770 000:977 JLINK_JTAG_GetDeviceID(DeviceIndex = 1)  returns 0x6414041 (0000ms, 0965ms total)
T0770 000:977 JLINK_JTAG_GetDeviceInfo(DeviceIndex = 1)  returns 0x00 (0000ms, 0965ms total)
T0770 000:977 JLINK_GetDebugInfo(0x100) -- Value=0xE00FF003  returns 0x00 (0000ms, 0965ms total)
T0770 000:979 JLINK_ReadMem (0xE00FF000, 0x0018 Bytes, ...) -- CPU_ReadMem(24 bytes @ 0xE00FF000) -- Data:  03 F0 F0 FF 03 20 F0 FF 03 30 F0 FF 03 10 F0 FF ...  returns 0x00 (0001ms, 0965ms total)
T0770 000:980 JLINK_ReadMemU32(0xE000ED00, 0x0001 Items, ...) -- CPU_ReadMem(4 bytes @ 0xE000ED00) -- Data:  31 C2 1F 41  returns 0x01 (0002ms, 0966ms total)
T0770 000:983 JLINK_Halt()  returns 0x00 (0000ms, 0968ms total)
T0770 000:983 JLINK_IsHalted()  returns TRUE (0000ms, 0968ms total)
T0770 000:983 JLINK_ReadMemU32(0xE000EDF0, 0x0001 Items, ...) -- CPU_ReadMem(4 bytes @ 0xE000EDF0) -- Data:  03 00 03 00  returns 0x01 (0001ms, 0968ms total)
T0770 000:984 JLINK_WriteU32(0xE000EDF0, 0xA05F0003) -- CPU_WriteMem(4 bytes @ 0xE000EDF0)  returns 0x00 (0001ms, 0969ms total)
T0770 000:985 JLINK_WriteU32(0xE000EDFC, 0x01000000) -- CPU_WriteMem(4 bytes @ 0xE000EDFC)  returns 0x00 (0001ms, 0970ms total)
T0770 000:986 JLINK_ReadMemU32(0xE0002000, 0x0001 Items, ...) -- CPU_ReadMem(4 bytes @ 0xE0002000) -- Data:  60 02 00 00  returns 0x01 (0001ms, 0971ms total)
T0770 000:987 JLINK_ReadMemU32(0xE0001000, 0x0001 Items, ...) -- CPU_ReadMem(4 bytes @ 0xE0001000) -- Data:  01 00 00 40  returns 0x01 (0001ms, 0972ms total)
T0770 000:989 JLINK_ExecCommand("Device = STM32F103VE", ...)
                JLINK_ExecCommand("map ram 0x20000000 - 0x2000FFFF", ...)  returns 0x00 (0000ms, 0000ms total)
                JLINK_AddMirrorAreaEx(Addr = 0x00000000, Size = 0x00000000) (0000ms, 0000ms total)
                returns 0x00 (0001ms, 0973ms total)
T0770 000:990 JLINK_GetHWStatus(...)  returns 0x00 (0000ms, 0974ms total)
T0770 000:991 JLINK_GetNumBPUnits(Type = 0xFFFFFF00) >0x2F8 JTAG>TotalIRLen = 9, IRPrint = 0x0011 >0x30 JTAG> >0x210 JTAG> >0x118 JTAG> >0xD8 JTAG> >0x198 JTAG> >0x38 JTAG> >0x118 JTAG> >0xD8 JTAG> >0x2F0 JTAG> >0x2F0 JTAG> >0x198 JTAG> >0x198 JTAG>Found Cortex-M3 r1p1, Little endian. >0xD8 JTAG> >0x240 JTAG> >0x198 JTAG> >0x198 JTAG>TPIU fitted. >0x198 JTAG>ETM fitted. >0x198 JTAG>  FPUnit: 6 code (BP) slots and 2 literal slots >0x198 JTAG>  returns 0x06 (0042ms, 0974ms total)
T0770 001:034 JLINK_GetNumBPUnits(Type = 0xF0)  returns 0x800 (0001ms, 1016ms total)
T0770 001:035 JLINK_GetNumWPUnits()  returns 0x04 (0000ms, 1017ms total)
T0770 001:036 JLINK_GetSpeed()  returns 0xBB8 (0000ms, 1017ms total)
T0770 001:036 JLINK_ReadMemU32(0xE000E004, 0x0001 Items, ...) -- CPU_ReadMem(4 bytes @ 0xE000E004) -- Data:  01 00 00 00  returns 0x01 (0001ms, 1017ms total)
T0770 001:037 JLINK_WriteMem(0xE0001000, 0x001C Bytes, ...) -- Data:  01 00 00 00 00 00 00 00 00 00 00 00 00 00 00 00 ... -- CPU_WriteMem(28 bytes @ 0xE0001000)  returns 0x1C (0001ms, 1018ms total)
T0770 001:038 JLINK_ReadMem (0xE0001000, 0x001C Bytes, ...) -- CPU_ReadMem(28 bytes @ 0xE0001000) -- Data:  01 00 00 40 00 00 00 00 00 00 00 00 00 00 00 00 ...  returns 0x00 (0001ms, 1019ms total)
T0770 001:039 JLINK_ReadReg(R15)  returns 0x08001C1C (0000ms, 1020ms total)
T0770 001:039 JLINK_ReadReg(XPSR)  returns 0x01000000 (0000ms, 1020ms total)
T0770 002:146 JLINK_SetResetType(JLINKARM_RESET_TYPE_NORMAL)  returns JLINKARM_RESET_TYPE_NORMAL (0000ms, 1020ms total)
T0770 002:146 JLINK_Reset() >0x308 JTAG>TotalIRLen = 9, IRPrint = 0x0011 >0x30 JTAG> >0x210 JTAG> >0x118 JTAG> >0xD8 JTAG> >0x198 JTAG> >0x38 JTAG> >0x118 JTAG> >0xD8 JTAG> >0x2F0 JTAG> >0x2F0 JTAG> >0x198 JTAG> >0x198 JTAG>Found Cortex-M3 r1p1, Little endian. >0xD8 JTAG> >0x240 JTAG> >0x198 JTAG> >0x198 JTAG>TPIU fitted. >0x198 JTAG>ETM fitted. >0x198 JTAG>  FPUnit: 6 code (BP) slots and 2 literal slots >0x198 JTAG> >0x250 JTAG> >0x240 JTAG> >0x280 JTAG> >0x198 JTAG> >0x198 JTAG> >0x240 JTAG>
 >0x240 JTAG> >0x198 JTAG> >0x198 JTAG> >0x240 JTAG> >0x198 JTAG> >0x17A8 JTAG> >0x198 JTAG> -- CPU_WriteMem(4 bytes @ 0xE000EDFC) -- CPU_WriteMem(4 bytes @ 0xE0001028) -- CPU_WriteMem(4 bytes @ 0xE0001038) -- CPU_WriteMem(4 bytes @ 0xE0001048) -- CPU_WriteMem(4 bytes @ 0xE0001058) (0103ms, 1020ms total)
T0770 002:249 JLINK_ReadReg(R15)  returns 0x08001C1C (0002ms, 1123ms total)
T0770 002:251 JLINK_ReadReg(XPSR)  returns 0x01000000 (0000ms, 1125ms total)
T0770 002:251 JLINK_ReadReg(R0)  returns 0x00000000 (0000ms, 1125ms total)
T0770 002:251 JLINK_ReadReg(R1)  returns 0x20000074 (0000ms, 1125ms total)
T0770 002:251 JLINK_ReadReg(R2)  returns 0x200006BC (0000ms, 1125ms total)
T0770 002:251 JLINK_ReadReg(R3)  returns 0x200006E4 (0000ms, 1125ms total)
T0770 002:251 JLINK_ReadReg(R4)  returns 0x00000000 (0000ms, 1125ms total)
T0770 002:251 JLINK_ReadReg(R5)  returns 0x200006BC (0000ms, 1125ms total)
T0770 002:251 JLINK_ReadReg(R6)  returns 0x200006D0 (0000ms, 1125ms total)
T0770 002:251 JLINK_ReadReg(R7)  returns 0x200006DC (0000ms, 1125ms total)
T0770 002:251 JLINK_ReadReg(R8)  returns 0x200006D4 (0001ms, 1125ms total)
T0770 002:252 JLINK_ReadReg(R9)  returns 0x200006E4 (0000ms, 1126ms total)
T0770 002:252 JLINK_ReadReg(R10)  returns 0x08005F54 (0000ms, 1126ms total)
T0770 002:252 JLINK_ReadReg(R11)  returns 0x200006CC (0000ms, 1126ms total)
T0770 002:252 JLINK_ReadReg(R12)  returns 0x3F6F5EE9 (0000ms, 1126ms total)
T0770 002:252 JLINK_ReadReg(R13)  returns 0x200006E8 (0000ms, 1126ms total)
T0770 002:252 JLINK_ReadReg(R14)  returns 0xFFFFFFFF (0000ms, 1126ms total)
T0770 002:252 JLINK_ReadReg(R15)  returns 0x08001C1C (0000ms, 1126ms total)
T0770 002:252 JLINK_ReadReg(XPSR)  returns 0x01000000 (0000ms, 1126ms total)
T0770 002:252 JLINK_ReadReg(MSP)  returns 0x200006E8 (0000ms, 1126ms total)
T0770 002:252 JLINK_ReadReg(PSP)  returns 0x20000800 (0000ms, 1126ms total)
T0770 002:252 JLINK_ReadReg(CFBP)  returns 0x00000000 (0000ms, 1126ms total)
T0770 002:252 JLINK_ReadMemU32(0xE0001004, 0x0001 Items, ...) -- CPU_ReadMem(4 bytes @ 0xE0001004) -- Data:  00 00 00 00  returns 0x01 (0006ms, 1126ms total)
T0770 002:259 JLINK_ReadMem (0x08001C1C, 0x003C Bytes, ...) -- CPU_ReadMem(128 bytes @ 0x08001C00) -- Updating C cache (128 bytes @ 0x08001C00) -- Read from C cache (60 bytes @ 0x08001C1C) -- Data:  09 48 80 47 09 48 00 47 FE E7 FE E7 FE E7 FE E7 ...  returns 0x00 (0002ms, 1132ms total)
T0770 002:613 JLINK_ReadMem (0x00000000, 0x008A Bytes, ...)
                JLINK_ReadMemHW(0x00000000, 0x0004 Bytes, ...) -- CPU_ReadMem(4 bytes @ 0x00000000) -- Data:  E8 06 00 20  returns 0x00 (0001ms, 0000ms total)
                JLINK_ReadMemHW(0x08000000, 0x0004 Bytes, ...) -- CPU_ReadMem(4 bytes @ 0x08000000) -- Data:  E8 06 00 20  returns 0x00 (0002ms, 0001ms total)
                JLINK_WriteMemHW(0x00000000, 0x0004 Bytes, ...) -- Data:  09 00 01 00 -- CPU_WriteMem(4 bytes @ 0x00000000)  returns 0x04 (0002ms, 0003ms total)
                JLINK_ReadMemHW(0x00000000, 0x0004 Bytes, ...) -- CPU_ReadMem(4 bytes @ 0x00000000) -- Data:  E8 06 00 20  returns 0x00 (0001ms, 0005ms total)
               -- MA0 is in flash -- Unmirror addr 0x00000000 -- CPU_ReadMem(192 bytes @ 0x08000000) -- Updating C cache (192 bytes @ 0x08000000) -- Read from C cache (138 bytes @ 0x08000000) -- Data:  E8 06 00 20 1D 1C 00 08 25 08 00 08 27 08 00 08 ...  returns 0x00 (0009ms, 1134ms total)
T0AD8 003:200 JLINK_SetBPEx(Addr = 0x08000360, Type = 0xFFFFFFF2)  returns 0x00000001 (0000ms, 1143ms total)
T0AD8 003:200 JLINK_SetBPEx(Addr = 0x080003C2, Type = 0xFFFFFFF2)  returns 0x00000002 (0000ms, 1143ms total)
T0AD8 003:200 JLINK_SetBPEx(Addr = 0x0800043E, Type = 0xFFFFFFF2)  returns 0x00000003 (0000ms, 1143ms total)
T0AD8 003:200 JLINK_SetBPEx(Addr = 0x08000476, Type = 0xFFFFFFF2)  returns 0x00000004 (0000ms, 1143ms total)
T0AD8 003:200 JLINK_SetBPEx(Addr = 0x080046B8, Type = 0xFFFFFFF2)  returns 0x00000005 (0000ms, 1143ms total)
T0AD8 003:200 JLINK_Go() -- CPU_WriteMem(4 bytes @ 0xE0002000) -- CPU_WriteMem(4 bytes @ 0xE0002008) -- CPU_WriteMem(4 bytes @ 0xE000200C) -- CPU_WriteMem(4 bytes @ 0xE0002010) -- CPU_WriteMem(4 bytes @ 0xE0002014) -- CPU_WriteMem(4 bytes @ 0xE0002018) -- CPU_WriteMem(4 bytes @ 0xE000201C) -- Invalidate MA0 status (0010ms, 1143ms total)
T0AD8 003:310 JLINK_IsHalted()  returns TRUE (0005ms, 1153ms total)
T0AD8 003:315 JLINK_Halt()  returns 0x00 (0000ms, 1153ms total)
T0AD8 003:315 JLINK_IsHalted()  returns TRUE (0000ms, 1153ms total)
T0AD8 003:315 JLINK_IsHalted()  returns TRUE (0000ms, 1153ms total)
T0AD8 003:315 JLINK_IsHalted()  returns TRUE (0000ms, 1153ms total)
T0AD8 003:315 JLINK_ReadReg(R15)  returns 0x08000360 (0000ms, 1153ms total)
T0AD8 003:315 JLINK_ReadReg(XPSR)  returns 0x21000000 (0000ms, 1153ms total)
T0AD8 003:315 JLINK_ClrBPEx(BPHandle = 0x00000001)  returns 0x00 (0000ms, 1153ms total)
T0AD8 003:315 JLINK_ClrBPEx(BPHandle = 0x00000002)  returns 0x00 (0000ms, 1153ms total)
T0AD8 003:315 JLINK_ClrBPEx(BPHandle = 0x00000003)  returns 0x00 (0000ms, 1153ms total)
T0AD8 003:315 JLINK_ClrBPEx(BPHandle = 0x00000004)  returns 0x00 (0000ms, 1153ms total)
T0AD8 003:315 JLINK_ClrBPEx(BPHandle = 0x00000005)  returns 0x00 (0000ms, 1153ms total)
T0AD8 003:315 JLINK_ReadMemU32(0xE000ED30, 0x0001 Items, ...) -- CPU_ReadMem(4 bytes @ 0xE000ED30) -- Data:  03 00 00 00  returns 0x01 (0002ms, 1153ms total)
T0AD8 003:317 JLINK_ReadMemU32(0xE0001028, 0x0001 Items, ...) -- CPU_ReadMem(4 bytes @ 0xE0001028) -- Data:  00 00 00 00  returns 0x01 (0001ms, 1155ms total)
T0AD8 003:318 JLINK_ReadMemU32(0xE0001038, 0x0001 Items, ...) -- CPU_ReadMem(4 bytes @ 0xE0001038) -- Data:  00 02 00 00  returns 0x01 (0001ms, 1156ms total)
T0AD8 003:319 JLINK_ReadMemU32(0xE0001048, 0x0001 Items, ...) -- CPU_ReadMem(4 bytes @ 0xE0001048) -- Data:  00 00 00 00  returns 0x01 (0001ms, 1157ms total)
T0AD8 003:320 JLINK_ReadMemU32(0xE0001058, 0x0001 Items, ...) -- CPU_ReadMem(4 bytes @ 0xE0001058) -- Data:  00 00 00 00  returns 0x01 (0001ms, 1158ms total)
T0AD8 003:321 JLINK_ReadReg(R0)  returns 0x200000E8 (0000ms, 1159ms total)
T0AD8 003:321 JLINK_ReadReg(R1)  returns 0x200002E8 (0000ms, 1159ms total)
T0AD8 003:321 JLINK_ReadReg(R2)  returns 0x200002E8 (0000ms, 1159ms total)
T0AD8 003:321 JLINK_ReadReg(R3)  returns 0x200002E8 (0000ms, 1159ms total)
T0AD8 003:321 JLINK_ReadReg(R4)  returns 0x00000000 (0000ms, 1159ms total)
T0AD8 003:321 JLINK_ReadReg(R5)  returns 0x20000084 (0000ms, 1159ms total)
T0AD8 003:321 JLINK_ReadReg(R6)  returns 0x00000000 (0000ms, 1159ms total)
T0AD8 003:321 JLINK_ReadReg(R7)  returns 0x00000000 (0000ms, 1159ms total)
T0AD8 003:321 JLINK_ReadReg(R8)  returns 0x00000000 (0000ms, 1159ms total)
T0AD8 003:321 JLINK_ReadReg(R9)  returns 0x200006E4 (0000ms, 1159ms total)
T0AD8 003:321 JLINK_ReadReg(R10)  returns 0x08005F54 (0000ms, 1159ms total)
T0AD8 003:321 JLINK_ReadReg(R11)  returns 0x00000000 (0000ms, 1159ms total)
T0AD8 003:321 JLINK_ReadReg(R12)  returns 0x200000C4 (0000ms, 1159ms total)
T0AD8 003:322 JLINK_ReadReg(R13)  returns 0x200006E8 (0000ms, 1159ms total)
T0AD8 003:322 JLINK_ReadReg(R14)  returns 0x080001BF (0000ms, 1159ms total)
T0AD8 003:322 JLINK_ReadReg(R15)  returns 0x08000360 (0000ms, 1159ms total)
T0AD8 003:322 JLINK_ReadReg(XPSR)  returns 0x21000000 (0000ms, 1159ms total)
T0AD8 003:322 JLINK_ReadReg(MSP)  returns 0x200006E8 (0000ms, 1159ms total)
T0AD8 003:322 JLINK_ReadReg(PSP)  returns 0x20000800 (0000ms, 1159ms total)
T0AD8 003:322 JLINK_ReadReg(CFBP)  returns 0x00000000 (0000ms, 1159ms total)
T0770 003:322 JLINK_ReadMemU32(0xE0001004, 0x0001 Items, ...) -- CPU_ReadMem(4 bytes @ 0xE0001004) -- Data:  C1 15 00 00  returns 0x01 (0001ms, 1159ms total)
T0AD8 005:187 JLINK_SetBPEx(Addr = 0x080003C2, Type = 0xFFFFFFF2)  returns 0x00000006 (0001ms, 1160ms total)
T0AD8 005:188 JLINK_SetBPEx(Addr = 0x0800043E, Type = 0xFFFFFFF2)  returns 0x00000007 (0000ms, 1161ms total)
T0AD8 005:188 JLINK_SetBPEx(Addr = 0x08000476, Type = 0xFFFFFFF2)  returns 0x00000008 (0000ms, 1161ms total)
T0AD8 005:188 JLINK_SetBPEx(Addr = 0x080046B8, Type = 0xFFFFFFF2)  returns 0x00000009 (0000ms, 1161ms total)
T0AD8 005:188 JLINK_Go() -- CPU_WriteMem(4 bytes @ 0xE000200C) -- CPU_WriteMem(4 bytes @ 0xE0002008) -- CPU_WriteMem(4 bytes @ 0xE0002010) -- CPU_WriteMem(4 bytes @ 0xE000200C) -- CPU_WriteMem(4 bytes @ 0xE0002008) -- CPU_WriteMem(4 bytes @ 0xE0002014) -- CPU_WriteMem(4 bytes @ 0xE0002010) -- CPU_WriteMem(4 bytes @ 0xE000200C) -- CPU_WriteMem(4 bytes @ 0xE0002018) -- CPU_WriteMem(4 bytes @ 0xE0002014) -- CPU_WriteMem(4 bytes @ 0xE0002010) -- CPU_WriteMem(4 bytes @ 0xE0002014)
 -- CPU_WriteMem(4 bytes @ 0xE0002018) -- CPU_WriteMem(4 bytes @ 0xE000201C) (0022ms, 1161ms total)
T0AD8 005:310 JLINK_IsHalted()  returns FALSE (0001ms, 1183ms total)
T0AD8 005:413 JLINK_IsHalted()  returns FALSE (0001ms, 1183ms total)
T0AD8 005:514 JLINK_IsHalted()  returns FALSE (0001ms, 1183ms total)
T0AD8 005:615 JLINK_IsHalted()  returns FALSE (0001ms, 1183ms total)
T0AD8 005:716 JLINK_IsHalted()  returns TRUE (0005ms, 1183ms total)
T0AD8 005:721 JLINK_Halt()  returns 0x00 (0000ms, 1183ms total)
T0AD8 005:721 JLINK_IsHalted()  returns TRUE (0000ms, 1183ms total)
T0AD8 005:721 JLINK_IsHalted()  returns TRUE (0000ms, 1183ms total)
T0AD8 005:721 JLINK_IsHalted()  returns TRUE (0000ms, 1183ms total)
T0AD8 005:721 JLINK_ReadReg(R15)  returns 0x080003C2 (0000ms, 1183ms total)
T0AD8 005:721 JLINK_ReadReg(XPSR)  returns 0x61000000 (0000ms, 1183ms total)
T0AD8 005:721 JLINK_ClrBPEx(BPHandle = 0x00000006)  returns 0x00 (0000ms, 1183ms total)
T0AD8 005:721 JLINK_ClrBPEx(BPHandle = 0x00000007)  returns 0x00 (0000ms, 1183ms total)
T0AD8 005:721 JLINK_ClrBPEx(BPHandle = 0x00000008)  returns 0x00 (0000ms, 1183ms total)
T0AD8 005:721 JLINK_ClrBPEx(BPHandle = 0x00000009)  returns 0x00 (0000ms, 1183ms total)
T0AD8 005:721 JLINK_ReadMemU32(0xE000ED30, 0x0001 Items, ...) -- CPU_ReadMem(4 bytes @ 0xE000ED30) -- Data:  03 00 00 00  returns 0x01 (0002ms, 1183ms total)
T0AD8 005:723 JLINK_ReadMemU32(0xE0001028, 0x0001 Items, ...) -- CPU_ReadMem(4 bytes @ 0xE0001028) -- Data:  00 00 00 00  returns 0x01 (0001ms, 1185ms total)
T0AD8 005:724 JLINK_ReadMemU32(0xE0001038, 0x0001 Items, ...) -- CPU_ReadMem(4 bytes @ 0xE0001038) -- Data:  00 02 00 00  returns 0x01 (0001ms, 1186ms total)
T0AD8 005:725 JLINK_ReadMemU32(0xE0001048, 0x0001 Items, ...) -- CPU_ReadMem(4 bytes @ 0xE0001048) -- Data:  00 00 00 00  returns 0x01 (0001ms, 1187ms total)
T0AD8 005:726 JLINK_ReadMemU32(0xE0001058, 0x0001 Items, ...) -- CPU_ReadMem(4 bytes @ 0xE0001058) -- Data:  00 00 00 00  returns 0x01 (0001ms, 1188ms total)
T0AD8 005:727 JLINK_ReadReg(R0)  returns 0x00000000 (0000ms, 1189ms total)
T0AD8 005:727 JLINK_ReadReg(R1)  returns 0x00000040 (0000ms, 1189ms total)
T0AD8 005:727 JLINK_ReadReg(R2)  returns 0x40013800 (0000ms, 1189ms total)
T0AD8 005:727 JLINK_ReadReg(R3)  returns 0x000000C0 (0000ms, 1189ms total)
T0AD8 005:727 JLINK_ReadReg(R4)  returns 0x00000000 (0000ms, 1189ms total)
T0AD8 005:727 JLINK_ReadReg(R5)  returns 0x20000084 (0000ms, 1189ms total)
T0AD8 005:727 JLINK_ReadReg(R6)  returns 0x00000000 (0000ms, 1189ms total)
T0AD8 005:727 JLINK_ReadReg(R7)  returns 0x00000000 (0000ms, 1189ms total)
T0AD8 005:727 JLINK_ReadReg(R8)  returns 0x00000000 (0000ms, 1189ms total)
T0AD8 005:727 JLINK_ReadReg(R9)  returns 0x200006E4 (0000ms, 1189ms total)
T0AD8 005:727 JLINK_ReadReg(R10)  returns 0x08005F54 (0000ms, 1189ms total)
T0AD8 005:727 JLINK_ReadReg(R11)  returns 0x00000000 (0000ms, 1189ms total)
T0AD8 005:727 JLINK_ReadReg(R12)  returns 0x00000300 (0000ms, 1189ms total)
T0AD8 005:727 JLINK_ReadReg(R13)  returns 0x200006B0 (0000ms, 1189ms total)
T0AD8 005:727 JLINK_ReadReg(R14)  returns 0x08000EDB (0000ms, 1189ms total)
T0AD8 005:727 JLINK_ReadReg(R15)  returns 0x080003C2 (0001ms, 1189ms total)
T0AD8 005:728 JLINK_ReadReg(XPSR)  returns 0x61000000 (0000ms, 1190ms total)
T0AD8 005:728 JLINK_ReadReg(MSP)  returns 0x200006B0 (0000ms, 1190ms total)
T0AD8 005:728 JLINK_ReadReg(PSP)  returns 0x20000800 (0000ms, 1190ms total)
T0AD8 005:728 JLINK_ReadReg(CFBP)  returns 0x00000000 (0000ms, 1190ms total)
T0AD8 005:728 JLINK_ReadMem (0x200006EC, 0x0004 Bytes, ...) -- CPU_ReadMem(64 bytes @ 0x200006C0) -- Updating C cache (64 bytes @ 0x200006C0) -- Read from C cache (4 bytes @ 0x200006EC) -- Data:  00 00 00 00  returns 0x00 (0001ms, 1190ms total)
T0770 005:729 JLINK_ReadMemU32(0xE0001004, 0x0001 Items, ...) -- CPU_ReadMem(4 bytes @ 0xE0001004) -- Data:  79 CE EA 01  returns 0x01 (0001ms, 1191ms total)
T0770 005:744 JLINK_ReadMem (0x080003C2, 0x0002 Bytes, ...) -- CPU_ReadMem(64 bytes @ 0x080003C0) -- Updating C cache (64 bytes @ 0x080003C0) -- Read from C cache (2 bytes @ 0x080003C2) -- Data:  03 F0  returns 0x00 (0002ms, 1192ms total)
T0770 005:746 JLINK_ReadMem (0x080003C4, 0x003C Bytes, ...) -- Read from C cache (60 bytes @ 0x080003C4) -- Data:  AD FB 18 B9 98 A0 00 F0 F8 FD 02 E0 A3 A0 00 F0 ...  returns 0x00 (0000ms, 1194ms total)
T0AD8 007:436 JLINK_Step() -- Read from C cache (2 bytes @ 0x080003C2) -- Not simulated -- CPU_WriteMem(4 bytes @ 0xE0002008) -- CPU_WriteMem(4 bytes @ 0xE000200C) -- CPU_WriteMem(4 bytes @ 0xE0002010) -- CPU_WriteMem(4 bytes @ 0xE0002014) -- CPU_WriteMem(4 bytes @ 0xE0002018) -- CPU_WriteMem(4 bytes @ 0xE000201C)  returns 0x00 (0017ms, 1194ms total)
T0AD8 007:453 JLINK_ReadReg(R15)  returns 0x08003B20 (0000ms, 1211ms total)
T0AD8 007:453 JLINK_ReadReg(XPSR)  returns 0x61000000 (0000ms, 1211ms total)
T0AD8 007:453 JLINK_ReadReg(R0)  returns 0x00000000 (0000ms, 1211ms total)
T0AD8 007:453 JLINK_ReadReg(R1)  returns 0x00000040 (0000ms, 1211ms total)
T0AD8 007:453 JLINK_ReadReg(R2)  returns 0x40013800 (0000ms, 1211ms total)
T0AD8 007:453 JLINK_ReadReg(R3)  returns 0x000000C0 (0000ms, 1211ms total)
T0AD8 007:453 JLINK_ReadReg(R4)  returns 0x00000000 (0000ms, 1211ms total)
T0AD8 007:453 JLINK_ReadReg(R5)  returns 0x20000084 (0000ms, 1211ms total)
T0AD8 007:453 JLINK_ReadReg(R6)  returns 0x00000000 (0000ms, 1211ms total)
T0AD8 007:453 JLINK_ReadReg(R7)  returns 0x00000000 (0000ms, 1211ms total)
T0AD8 007:453 JLINK_ReadReg(R8)  returns 0x00000000 (0000ms, 1211ms total)
T0AD8 007:453 JLINK_ReadReg(R9)  returns 0x200006E4 (0000ms, 1211ms total)
T0AD8 007:453 JLINK_ReadReg(R10)  returns 0x08005F54 (0000ms, 1211ms total)
T0AD8 007:453 JLINK_ReadReg(R11)  returns 0x00000000 (0000ms, 1211ms total)
T0AD8 007:453 JLINK_ReadReg(R12)  returns 0x00000300 (0000ms, 1211ms total)
T0AD8 007:453 JLINK_ReadReg(R13)  returns 0x200006B0 (0000ms, 1211ms total)
T0AD8 007:453 JLINK_ReadReg(R14)  returns 0x080003C7 (0000ms, 1211ms total)
T0AD8 007:453 JLINK_ReadReg(R15)  returns 0x08003B20 (0000ms, 1211ms total)
T0AD8 007:453 JLINK_ReadReg(XPSR)  returns 0x61000000 (0000ms, 1211ms total)
T0AD8 007:453 JLINK_ReadReg(MSP)  returns 0x200006B0 (0000ms, 1211ms total)
T0AD8 007:453 JLINK_ReadReg(PSP)  returns 0x20000800 (0001ms, 1211ms total)
T0AD8 007:454 JLINK_ReadReg(CFBP)  returns 0x00000000 (0000ms, 1212ms total)
T0770 007:454 JLINK_ReadMemU32(0xE0001004, 0x0001 Items, ...) -- CPU_ReadMem(4 bytes @ 0xE0001004) -- Data:  7A CE EA 01  returns 0x01 (0001ms, 1212ms total)
T0770 007:534 JLINK_ReadMem (0x08003B20, 0x003C Bytes, ...) -- CPU_ReadMem(128 bytes @ 0x08003B00) -- Updating C cache (128 bytes @ 0x08003B00) -- Read from C cache (60 bytes @ 0x08003B20) -- Data:  10 B5 C8 23 4F F4 80 62 FB 49 40 F6 F6 30 FF F7 ...  returns 0x00 (0003ms, 1213ms total)
T0AD8 015:740 JLINK_Step() -- Read from C cache (2 bytes @ 0x08003B20) -- Not simulated -- CPU_WriteMem(4 bytes @ 0xE0002008) -- CPU_WriteMem(4 bytes @ 0xE000200C) -- CPU_WriteMem(4 bytes @ 0xE0002010) -- CPU_WriteMem(4 bytes @ 0xE0002014) -- CPU_WriteMem(4 bytes @ 0xE0002018) -- CPU_WriteMem(4 bytes @ 0xE000201C)  returns 0x00 (0016ms, 1216ms total)
T0AD8 015:756 JLINK_ReadReg(R15)  returns 0x08003B22 (0000ms, 1232ms total)
T0AD8 015:756 JLINK_ReadReg(XPSR)  returns 0x61000000 (0000ms, 1232ms total)
T0AD8 015:757 JLINK_ReadReg(R0)  returns 0x00000000 (0000ms, 1232ms total)
T0AD8 015:757 JLINK_ReadReg(R1)  returns 0x00000040 (0000ms, 1232ms total)
T0AD8 015:757 JLINK_ReadReg(R2)  returns 0x40013800 (0000ms, 1232ms total)
T0AD8 015:757 JLINK_ReadReg(R3)  returns 0x000000C0 (0000ms, 1232ms total)
T0AD8 015:757 JLINK_ReadReg(R4)  returns 0x00000000 (0000ms, 1232ms total)
T0AD8 015:757 JLINK_ReadReg(R5)  returns 0x20000084 (0000ms, 1232ms total)
T0AD8 015:757 JLINK_ReadReg(R6)  returns 0x00000000 (0000ms, 1232ms total)
T0AD8 015:757 JLINK_ReadReg(R7)  returns 0x00000000 (0000ms, 1232ms total)
T0AD8 015:757 JLINK_ReadReg(R8)  returns 0x00000000 (0000ms, 1232ms total)
T0AD8 015:757 JLINK_ReadReg(R9)  returns 0x200006E4 (0000ms, 1232ms total)
T0AD8 015:757 JLINK_ReadReg(R10)  returns 0x08005F54 (0000ms, 1232ms total)
T0AD8 015:757 JLINK_ReadReg(R11)  returns 0x00000000 (0000ms, 1232ms total)
T0AD8 015:757 JLINK_ReadReg(R12)  returns 0x00000300 (0000ms, 1232ms total)
T0AD8 015:757 JLINK_ReadReg(R13)  returns 0x200006A8 (0000ms, 1232ms total)
T0AD8 015:757 JLINK_ReadReg(R14)  returns 0x080003C7 (0000ms, 1232ms total)
T0AD8 015:757 JLINK_ReadReg(R15)  returns 0x08003B22 (0000ms, 1232ms total)
T0AD8 015:757 JLINK_ReadReg(XPSR)  returns 0x61000000 (0000ms, 1232ms total)
T0AD8 015:757 JLINK_ReadReg(MSP)  returns 0x200006A8 (0000ms, 1232ms total)
T0AD8 015:757 JLINK_ReadReg(PSP)  returns 0x20000800 (0000ms, 1232ms total)
T0AD8 015:757 JLINK_ReadReg(CFBP)  returns 0x00000000 (0000ms, 1232ms total)
T0AD8 015:757 JLINK_ReadMem (0x200006AC, 0x0004 Bytes, ...) -- CPU_ReadMem(64 bytes @ 0x20000680) -- Updating C cache (64 bytes @ 0x20000680) -- Read from C cache (4 bytes @ 0x200006AC) -- Data:  C7 03 00 08  returns 0x00 (0001ms, 1232ms total)
T0770 015:759 JLINK_ReadMemU32(0xE0001004, 0x0001 Items, ...) -- CPU_ReadMem(4 bytes @ 0xE0001004) -- Data:  7D CE EA 01  returns 0x01 (0001ms, 1233ms total)
T0770 015:763 JLINK_ReadMem (0x08003B22, 0x0002 Bytes, ...) -- CPU_ReadMem(64 bytes @ 0x08003B00) -- Updating C cache (64 bytes @ 0x08003B00) -- Read from C cache (2 bytes @ 0x08003B22) -- Data:  C8 23  returns 0x00 (0001ms, 1234ms total)
T0770 015:764 JLINK_ReadMem (0x08003B24, 0x003C Bytes, ...) -- CPU_ReadMem(64 bytes @ 0x08003B40) -- Updating C cache (64 bytes @ 0x08003B40) -- Read from C cache (60 bytes @ 0x08003B24) -- Data:  4F F4 80 62 FB 49 40 F6 F6 30 FF F7 87 FE 10 BD ...  returns 0x00 (0003ms, 1235ms total)
T0AD8 017:083 JLINK_Step() -- Read from C cache (2 bytes @ 0x08003B22) -- Simulated  returns 0x00 (0001ms, 1238ms total)
T0AD8 017:084 JLINK_ReadReg(R15)  returns 0x08003B24 (0000ms, 1239ms total)
T0AD8 017:084 JLINK_ReadReg(XPSR)  returns 0x21000000 (0000ms, 1239ms total)
T0AD8 017:084 JLINK_ReadReg(R0)  returns 0x00000000 (0001ms, 1239ms total)
T0AD8 017:085 JLINK_ReadReg(R1)  returns 0x00000040 (0000ms, 1240ms total)
T0AD8 017:085 JLINK_ReadReg(R2)  returns 0x40013800 (0000ms, 1240ms total)
T0AD8 017:085 JLINK_ReadReg(R3)  returns 0x000000C8 (0000ms, 1240ms total)
T0AD8 017:085 JLINK_ReadReg(R4)  returns 0x00000000 (0000ms, 1240ms total)
T0AD8 017:085 JLINK_ReadReg(R5)  returns 0x20000084 (0000ms, 1240ms total)
T0AD8 017:085 JLINK_ReadReg(R6)  returns 0x00000000 (0000ms, 1240ms total)
T0AD8 017:085 JLINK_ReadReg(R7)  returns 0x00000000 (0000ms, 1240ms total)
T0AD8 017:085 JLINK_ReadReg(R8)  returns 0x00000000 (0000ms, 1240ms total)
T0AD8 017:085 JLINK_ReadReg(R9)  returns 0x200006E4 (0000ms, 1240ms total)
T0AD8 017:085 JLINK_ReadReg(R10)  returns 0x08005F54 (0000ms, 1240ms total)
T0AD8 017:085 JLINK_ReadReg(R11)  returns 0x00000000 (0000ms, 1240ms total)
T0AD8 017:085 JLINK_ReadReg(R12)  returns 0x00000300 (0000ms, 1240ms total)
T0AD8 017:085 JLINK_ReadReg(R13)  returns 0x200006A8 (0000ms, 1240ms total)
T0AD8 017:085 JLINK_ReadReg(R14)  returns 0x080003C7 (0000ms, 1240ms total)
T0AD8 017:085 JLINK_ReadReg(R15)  returns 0x08003B24 (0000ms, 1240ms total)
T0AD8 017:085 JLINK_ReadReg(XPSR)  returns 0x21000000 (0000ms, 1240ms total)
T0AD8 017:085 JLINK_ReadReg(MSP)  returns 0x200006A8 (0000ms, 1240ms total)
T0AD8 017:085 JLINK_ReadReg(PSP)  returns 0x20000800 (0000ms, 1240ms total)
T0AD8 017:085 JLINK_ReadReg(CFBP)  returns 0x00000000 (0000ms, 1240ms total)
T0AD8 017:085 JLINK_ReadMem (0x200006AC, 0x0004 Bytes, ...) -- Read from C cache (4 bytes @ 0x200006AC) -- Data:  C7 03 00 08  returns 0x00 (0000ms, 1240ms total)
T0770 017:086 JLINK_ReadMemU32(0xE0001004, 0x0001 Items, ...) -- CPU_ReadMem(4 bytes @ 0xE0001004) -- Data:  7D CE EA 01  returns 0x01 (0001ms, 1240ms total)
T0AD8 018:031 JLINK_Step() -- Read from C cache (2 bytes @ 0x08003B24) -- Not simulated -- CPU_WriteMem(4 bytes @ 0xE0002008) -- CPU_WriteMem(4 bytes @ 0xE000200C) -- CPU_WriteMem(4 bytes @ 0xE0002010) -- CPU_WriteMem(4 bytes @ 0xE0002014) -- CPU_WriteMem(4 bytes @ 0xE0002018) -- CPU_WriteMem(4 bytes @ 0xE000201C)  returns 0x00 (0014ms, 1241ms total)
T0AD8 018:045 JLINK_ReadReg(R15)  returns 0x08003B28 (0000ms, 1255ms total)
T0AD8 018:045 JLINK_ReadReg(XPSR)  returns 0x21000000 (0000ms, 1255ms total)
T0AD8 018:046 JLINK_ReadReg(R0)  returns 0x00000000 (0000ms, 1255ms total)
T0AD8 018:046 JLINK_ReadReg(R1)  returns 0x00000040 (0000ms, 1255ms total)
T0AD8 018:046 JLINK_ReadReg(R2)  returns 0x00000400 (0000ms, 1255ms total)
T0AD8 018:046 JLINK_ReadReg(R3)  returns 0x000000C8 (0000ms, 1255ms total)
T0AD8 018:046 JLINK_ReadReg(R4)  returns 0x00000000 (0000ms, 1255ms total)
T0AD8 018:046 JLINK_ReadReg(R5)  returns 0x20000084 (0000ms, 1255ms total)
T0AD8 018:046 JLINK_ReadReg(R6)  returns 0x00000000 (0000ms, 1255ms total)
T0AD8 018:046 JLINK_ReadReg(R7)  returns 0x00000000 (0000ms, 1255ms total)
T0AD8 018:046 JLINK_ReadReg(R8)  returns 0x00000000 (0000ms, 1255ms total)
T0AD8 018:046 JLINK_ReadReg(R9)  returns 0x200006E4 (0000ms, 1255ms total)
T0AD8 018:046 JLINK_ReadReg(R10)  returns 0x08005F54 (0000ms, 1255ms total)
T0AD8 018:046 JLINK_ReadReg(R11)  returns 0x00000000 (0000ms, 1255ms total)
T0AD8 018:046 JLINK_ReadReg(R12)  returns 0x00000300 (0000ms, 1255ms total)
T0AD8 018:046 JLINK_ReadReg(R13)  returns 0x200006A8 (0000ms, 1255ms total)
T0AD8 018:046 JLINK_ReadReg(R14)  returns 0x080003C7 (0000ms, 1255ms total)
T0AD8 018:046 JLINK_ReadReg(R15)  returns 0x08003B28 (0000ms, 1255ms total)
T0AD8 018:046 JLINK_ReadReg(XPSR)  returns 0x21000000 (0000ms, 1255ms total)
T0AD8 018:046 JLINK_ReadReg(MSP)  returns 0x200006A8 (0000ms, 1255ms total)
T0AD8 018:046 JLINK_ReadReg(PSP)  returns 0x20000800 (0000ms, 1255ms total)
T0AD8 018:046 JLINK_ReadReg(CFBP)  returns 0x00000000 (0001ms, 1255ms total)
T0AD8 018:047 JLINK_ReadMem (0x200006AC, 0x0004 Bytes, ...) -- CPU_ReadMem(64 bytes @ 0x20000680) -- Updating C cache (64 bytes @ 0x20000680) -- Read from C cache (4 bytes @ 0x200006AC) -- Data:  C7 03 00 08  returns 0x00 (0001ms, 1256ms total)
T0770 018:049 JLINK_ReadMemU32(0xE0001004, 0x0001 Items, ...) -- CPU_ReadMem(4 bytes @ 0xE0001004) -- Data:  7E CE EA 01  returns 0x01 (0001ms, 1257ms total)
T0770 018:055 JLINK_ReadMem (0x08003B28, 0x003C Bytes, ...) -- CPU_ReadMem(128 bytes @ 0x08003B00) -- Updating C cache (128 bytes @ 0x08003B00) -- Read from C cache (60 bytes @ 0x08003B28) -- Data:  FB 49 40 F6 F6 30 FF F7 87 FE 10 BD 10 B5 86 B0 ...  returns 0x00 (0002ms, 1258ms total)
T0AD8 018:702 JLINK_Step() -- Read from C cache (2 bytes @ 0x08003B28) -- Not simulated -- CPU_WriteMem(4 bytes @ 0xE0002008) -- CPU_WriteMem(4 bytes @ 0xE000200C) -- CPU_WriteMem(4 bytes @ 0xE0002010) -- CPU_WriteMem(4 bytes @ 0xE0002014) -- CPU_WriteMem(4 bytes @ 0xE0002018) -- CPU_WriteMem(4 bytes @ 0xE000201C)  returns 0x00 (0016ms, 1260ms total)
T0AD8 018:718 JLINK_ReadReg(R15)  returns 0x08003B2A (0000ms, 1276ms total)
T0AD8 018:718 JLINK_ReadReg(XPSR)  returns 0x21000000 (0000ms, 1276ms total)
T0AD8 018:718 JLINK_ReadReg(R0)  returns 0x00000000 (0000ms, 1276ms total)
T0AD8 018:718 JLINK_ReadReg(R1)  returns 0x0800533D (0000ms, 1276ms total)
T0AD8 018:718 JLINK_ReadReg(R2)  returns 0x00000400 (0000ms, 1276ms total)
T0AD8 018:718 JLINK_ReadReg(R3)  returns 0x000000C8 (0000ms, 1276ms total)
T0AD8 018:718 JLINK_ReadReg(R4)  returns 0x00000000 (0000ms, 1276ms total)
T0AD8 018:718 JLINK_ReadReg(R5)  returns 0x20000084 (0000ms, 1276ms total)
T0AD8 018:718 JLINK_ReadReg(R6)  returns 0x00000000 (0000ms, 1276ms total)
T0AD8 018:718 JLINK_ReadReg(R7)  returns 0x00000000 (0000ms, 1276ms total)
T0AD8 018:718 JLINK_ReadReg(R8)  returns 0x00000000 (0000ms, 1276ms total)
T0AD8 018:718 JLINK_ReadReg(R9)  returns 0x200006E4 (0000ms, 1276ms total)
T0AD8 018:718 JLINK_ReadReg(R10)  returns 0x08005F54 (0000ms, 1276ms total)
T0AD8 018:718 JLINK_ReadReg(R11)  returns 0x00000000 (0000ms, 1276ms total)
T0AD8 018:718 JLINK_ReadReg(R12)  returns 0x00000300 (0000ms, 1276ms total)
T0AD8 018:718 JLINK_ReadReg(R13)  returns 0x200006A8 (0000ms, 1276ms total)
T0AD8 018:718 JLINK_ReadReg(R14)  returns 0x080003C7 (0000ms, 1276ms total)
T0AD8 018:718 JLINK_ReadReg(R15)  returns 0x08003B2A (0001ms, 1276ms total)
T0AD8 018:719 JLINK_ReadReg(XPSR)  returns 0x21000000 (0000ms, 1277ms total)
T0AD8 018:719 JLINK_ReadReg(MSP)  returns 0x200006A8 (0000ms, 1277ms total)
T0AD8 018:719 JLINK_ReadReg(PSP)  returns 0x20000800 (0000ms, 1277ms total)
T0AD8 018:719 JLINK_ReadReg(CFBP)  returns 0x00000000 (0000ms, 1277ms total)
T0AD8 018:719 JLINK_ReadMem (0x200006AC, 0x0004 Bytes, ...) -- CPU_ReadMem(64 bytes @ 0x20000680) -- Updating C cache (64 bytes @ 0x20000680) -- Read from C cache (4 bytes @ 0x200006AC) -- Data:  C7 03 00 08  returns 0x00 (0003ms, 1277ms total)
T0770 018:722 JLINK_ReadMemU32(0xE0001004, 0x0001 Items, ...) -- CPU_ReadMem(4 bytes @ 0xE0001004) -- Data:  83 CE EA 01  returns 0x01 (0001ms, 1280ms total)
T0AD8 019:179 JLINK_Step() -- CPU_ReadMem(64 bytes @ 0x08003B00) -- Updating C cache (64 bytes @ 0x08003B00) -- Read from C cache (2 bytes @ 0x08003B2A) -- Not simulated -- CPU_WriteMem(4 bytes @ 0xE0002008) -- CPU_WriteMem(4 bytes @ 0xE000200C) -- CPU_WriteMem(4 bytes @ 0xE0002010) -- CPU_WriteMem(4 bytes @ 0xE0002014) -- CPU_WriteMem(4 bytes @ 0xE0002018) -- CPU_WriteMem(4 bytes @ 0xE000201C)  returns 0x00 (0016ms, 1281ms total)
T0AD8 019:195 JLINK_ReadReg(R15)  returns 0x08003B2E (0000ms, 1297ms total)
T0AD8 019:195 JLINK_ReadReg(XPSR)  returns 0x21000000 (0000ms, 1297ms total)
T0AD8 019:195 JLINK_ReadReg(R0)  returns 0x00000BF6 (0000ms, 1297ms total)
T0AD8 019:195 JLINK_ReadReg(R1)  returns 0x0800533D (0000ms, 1297ms total)
T0AD8 019:195 JLINK_ReadReg(R2)  returns 0x00000400 (0001ms, 1297ms total)
T0AD8 019:196 JLINK_ReadReg(R3)  returns 0x000000C8 (0000ms, 1298ms total)
T0AD8 019:196 JLINK_ReadReg(R4)  returns 0x00000000 (0000ms, 1298ms total)
T0AD8 019:196 JLINK_ReadReg(R5)  returns 0x20000084 (0000ms, 1298ms total)
T0AD8 019:196 JLINK_ReadReg(R6)  returns 0x00000000 (0000ms, 1298ms total)
T0AD8 019:196 JLINK_ReadReg(R7)  returns 0x00000000 (0000ms, 1298ms total)
T0AD8 019:196 JLINK_ReadReg(R8)  returns 0x00000000 (0000ms, 1298ms total)
T0AD8 019:196 JLINK_ReadReg(R9)  returns 0x200006E4 (0000ms, 1298ms total)
T0AD8 019:196 JLINK_ReadReg(R10)  returns 0x08005F54 (0000ms, 1298ms total)
T0AD8 019:196 JLINK_ReadReg(R11)  returns 0x00000000 (0000ms, 1298ms total)
T0AD8 019:196 JLINK_ReadReg(R12)  returns 0x00000300 (0000ms, 1298ms total)
T0AD8 019:196 JLINK_ReadReg(R13)  returns 0x200006A8 (0000ms, 1298ms total)
T0AD8 019:196 JLINK_ReadReg(R14)  returns 0x080003C7 (0000ms, 1298ms total)
T0AD8 019:196 JLINK_ReadReg(R15)  returns 0x08003B2E (0000ms, 1298ms total)
T0AD8 019:196 JLINK_ReadReg(XPSR)  returns 0x21000000 (0000ms, 1298ms total)
T0AD8 019:196 JLINK_ReadReg(MSP)  returns 0x200006A8 (0000ms, 1298ms total)
T0AD8 019:196 JLINK_ReadReg(PSP)  returns 0x20000800 (0000ms, 1298ms total)
T0AD8 019:196 JLINK_ReadReg(CFBP)  returns 0x00000000 (0000ms, 1298ms total)
T0AD8 019:196 JLINK_ReadMem (0x200006AC, 0x0004 Bytes, ...) -- CPU_ReadMem(64 bytes @ 0x20000680) -- Updating C cache (64 bytes @ 0x20000680) -- Read from C cache (4 bytes @ 0x200006AC) -- Data:  C7 03 00 08  returns 0x00 (0002ms, 1298ms total)
T0770 019:199 JLINK_ReadMemU32(0xE0001004, 0x0001 Items, ...) -- CPU_ReadMem(4 bytes @ 0xE0001004) -- Data:  84 CE EA 01  returns 0x01 (0002ms, 1300ms total)
T0AD8 019:538 JLINK_Step() -- CPU_ReadMem(64 bytes @ 0x08003B00) -- Updating C cache (64 bytes @ 0x08003B00) -- Read from C cache (2 bytes @ 0x08003B2E) -- Not simulated -- CPU_WriteMem(4 bytes @ 0xE0002008) -- CPU_WriteMem(4 bytes @ 0xE000200C) -- CPU_WriteMem(4 bytes @ 0xE0002010) -- CPU_WriteMem(4 bytes @ 0xE0002014) -- CPU_WriteMem(4 bytes @ 0xE0002018) -- CPU_WriteMem(4 bytes @ 0xE000201C)  returns 0x00 (0019ms, 1302ms total)
T0AD8 019:557 JLINK_ReadReg(R15)  returns 0x08003840 (0000ms, 1321ms total)
T0AD8 019:557 JLINK_ReadReg(XPSR)  returns 0x21000000 (0000ms, 1321ms total)
T0AD8 019:557 JLINK_ReadReg(R0)  returns 0x00000BF6 (0000ms, 1321ms total)
T0AD8 019:557 JLINK_ReadReg(R1)  returns 0x0800533D (0000ms, 1321ms total)
T0AD8 019:557 JLINK_ReadReg(R2)  returns 0x00000400 (0000ms, 1321ms total)
T0AD8 019:557 JLINK_ReadReg(R3)  returns 0x000000C8 (0000ms, 1321ms total)
T0AD8 019:557 JLINK_ReadReg(R4)  returns 0x00000000 (0000ms, 1321ms total)
T0AD8 019:557 JLINK_ReadReg(R5)  returns 0x20000084 (0000ms, 1321ms total)
T0AD8 019:557 JLINK_ReadReg(R6)  returns 0x00000000 (0001ms, 1321ms total)
T0AD8 019:558 JLINK_ReadReg(R7)  returns 0x00000000 (0000ms, 1322ms total)
T0AD8 019:558 JLINK_ReadReg(R8)  returns 0x00000000 (0000ms, 1322ms total)
T0AD8 019:558 JLINK_ReadReg(R9)  returns 0x200006E4 (0000ms, 1322ms total)
T0AD8 019:558 JLINK_ReadReg(R10)  returns 0x08005F54 (0000ms, 1322ms total)
T0AD8 019:558 JLINK_ReadReg(R11)  returns 0x00000000 (0000ms, 1322ms total)
T0AD8 019:558 JLINK_ReadReg(R12)  returns 0x00000300 (0000ms, 1322ms total)
T0AD8 019:558 JLINK_ReadReg(R13)  returns 0x200006A8 (0000ms, 1322ms total)
T0AD8 019:558 JLINK_ReadReg(R14)  returns 0x08003B33 (0000ms, 1322ms total)
T0AD8 019:558 JLINK_ReadReg(R15)  returns 0x08003840 (0000ms, 1322ms total)
T0AD8 019:558 JLINK_ReadReg(XPSR)  returns 0x21000000 (0000ms, 1322ms total)
T0AD8 019:558 JLINK_ReadReg(MSP)  returns 0x200006A8 (0000ms, 1322ms total)
T0AD8 019:558 JLINK_ReadReg(PSP)  returns 0x20000800 (0000ms, 1322ms total)
T0AD8 019:558 JLINK_ReadReg(CFBP)  returns 0x00000000 (0000ms, 1322ms total)
T0AD8 019:558 JLINK_ReadMem (0x200006AC, 0x0004 Bytes, ...) -- CPU_ReadMem(64 bytes @ 0x20000680) -- Updating C cache (64 bytes @ 0x20000680) -- Read from C cache (4 bytes @ 0x200006AC) -- Data:  C7 03 00 08  returns 0x00 (0001ms, 1322ms total)
T0770 019:560 JLINK_ReadMemU32(0xE0001004, 0x0001 Items, ...) -- CPU_ReadMem(4 bytes @ 0xE0001004) -- Data:  85 CE EA 01  returns 0x01 (0001ms, 1323ms total)
T0AD8 019:819 JLINK_Step() -- CPU_ReadMem(64 bytes @ 0x08003840) -- Updating C cache (64 bytes @ 0x08003840) -- Read from C cache (2 bytes @ 0x08003840) -- Not simulated -- CPU_WriteMem(4 bytes @ 0xE0002008) -- CPU_WriteMem(4 bytes @ 0xE000200C) -- CPU_WriteMem(4 bytes @ 0xE0002010) -- CPU_WriteMem(4 bytes @ 0xE0002014) -- CPU_WriteMem(4 bytes @ 0xE0002018) -- CPU_WriteMem(4 bytes @ 0xE000201C)  returns 0x00 (0017ms, 1324ms total)
T0AD8 019:836 JLINK_ReadReg(R15)  returns 0x08003844 (0000ms, 1341ms total)
T0AD8 019:836 JLINK_ReadReg(XPSR)  returns 0x21000000 (0000ms, 1341ms total)
T0AD8 019:836 JLINK_ReadReg(R0)  returns 0x00000BF6 (0000ms, 1341ms total)
T0AD8 019:836 JLINK_ReadReg(R1)  returns 0x0800533D (0000ms, 1341ms total)
T0AD8 019:836 JLINK_ReadReg(R2)  returns 0x00000400 (0000ms, 1341ms total)
T0AD8 019:836 JLINK_ReadReg(R3)  returns 0x000000C8 (0000ms, 1341ms total)
T0AD8 019:836 JLINK_ReadReg(R4)  returns 0x00000000 (0000ms, 1341ms total)
T0AD8 019:836 JLINK_ReadReg(R5)  returns 0x20000084 (0001ms, 1341ms total)
T0AD8 019:837 JLINK_ReadReg(R6)  returns 0x00000000 (0000ms, 1342ms total)
T0AD8 019:837 JLINK_ReadReg(R7)  returns 0x00000000 (0000ms, 1342ms total)
T0AD8 019:837 JLINK_ReadReg(R8)  returns 0x00000000 (0000ms, 1342ms total)
T0AD8 019:837 JLINK_ReadReg(R9)  returns 0x200006E4 (0000ms, 1342ms total)
T0AD8 019:837 JLINK_ReadReg(R10)  returns 0x08005F54 (0000ms, 1342ms total)
T0AD8 019:837 JLINK_ReadReg(R11)  returns 0x00000000 (0000ms, 1342ms total)
T0AD8 019:837 JLINK_ReadReg(R12)  returns 0x00000300 (0000ms, 1342ms total)
T0AD8 019:837 JLINK_ReadReg(R13)  returns 0x2000068C (0000ms, 1342ms total)
T0AD8 019:837 JLINK_ReadReg(R14)  returns 0x08003B33 (0000ms, 1342ms total)
T0AD8 019:837 JLINK_ReadReg(R15)  returns 0x08003844 (0000ms, 1342ms total)
T0AD8 019:837 JLINK_ReadReg(XPSR)  returns 0x21000000 (0000ms, 1342ms total)
T0AD8 019:837 JLINK_ReadReg(MSP)  returns 0x2000068C (0000ms, 1342ms total)
T0AD8 019:837 JLINK_ReadReg(PSP)  returns 0x20000800 (0000ms, 1342ms total)
T0AD8 019:837 JLINK_ReadReg(CFBP)  returns 0x00000000 (0000ms, 1342ms total)
T0AD8 019:837 JLINK_ReadMem (0x200006A4, 0x0004 Bytes, ...) -- CPU_ReadMem(64 bytes @ 0x20000680) -- Updating C cache (64 bytes @ 0x20000680) -- Read from C cache (4 bytes @ 0x200006A4) -- Data:  33 3B 00 08  returns 0x00 (0001ms, 1342ms total)
T0AD8 019:838 JLINK_ReadMem (0x200006AC, 0x0004 Bytes, ...) -- Read from C cache (4 bytes @ 0x200006AC) -- Data:  C7 03 00 08  returns 0x00 (0000ms, 1343ms total)
T0770 019:839 JLINK_ReadMemU32(0xE0001004, 0x0001 Items, ...) -- CPU_ReadMem(4 bytes @ 0xE0001004) -- Data:  8D CE EA 01  returns 0x01 (0002ms, 1343ms total)
T0770 019:845 JLINK_ReadMem (0x08003844, 0x003C Bytes, ...) -- CPU_ReadMem(64 bytes @ 0x08003840) -- Updating C cache (64 bytes @ 0x08003840) -- Read from C cache (60 bytes @ 0x08003844) -- Data:  85 B0 05 46 0E 46 90 46 99 46 19 48 90 F8 25 00 ...  returns 0x00 (0001ms, 1345ms total)
T0AD8 026:190 JLINK_Step() -- Read from C cache (2 bytes @ 0x08003844) -- Not simulated -- CPU_WriteMem(4 bytes @ 0xE0002008) -- CPU_WriteMem(4 bytes @ 0xE000200C) -- CPU_WriteMem(4 bytes @ 0xE0002010) -- CPU_WriteMem(4 bytes @ 0xE0002014) -- CPU_WriteMem(4 bytes @ 0xE0002018) -- CPU_WriteMem(4 bytes @ 0xE000201C)  returns 0x00 (0014ms, 1346ms total)
T0AD8 026:204 JLINK_ReadReg(R15)  returns 0x08003846 (0000ms, 1360ms total)
T0AD8 026:204 JLINK_ReadReg(XPSR)  returns 0x21000000 (0000ms, 1360ms total)
T0AD8 026:205 JLINK_Step() -- CPU_ReadMem(64 bytes @ 0x08003840) -- Updating C cache (64 bytes @ 0x08003840) -- Read from C cache (2 bytes @ 0x08003846) -- Not simulated -- CPU_WriteMem(4 bytes @ 0xE0002008) -- CPU_WriteMem(4 bytes @ 0xE000200C) -- CPU_WriteMem(4 bytes @ 0xE0002010) -- CPU_WriteMem(4 bytes @ 0xE0002014) -- CPU_WriteMem(4 bytes @ 0xE0002018) -- CPU_WriteMem(4 bytes @ 0xE000201C)  returns 0x00 (0014ms, 1360ms total)
T0AD8 026:219 JLINK_ReadReg(R15)  returns 0x08003848 (0000ms, 1374ms total)
T0AD8 026:219 JLINK_ReadReg(XPSR)  returns 0x21000000 (0000ms, 1374ms total)
T0AD8 026:219 JLINK_Step() -- CPU_ReadMem(64 bytes @ 0x08003840) -- Updating C cache (64 bytes @ 0x08003840) -- Read from C cache (2 bytes @ 0x08003848) -- Not simulated -- CPU_WriteMem(4 bytes @ 0xE0002008) -- CPU_WriteMem(4 bytes @ 0xE000200C) -- CPU_WriteMem(4 bytes @ 0xE0002010) -- CPU_WriteMem(4 bytes @ 0xE0002014) -- CPU_WriteMem(4 bytes @ 0xE0002018) -- CPU_WriteMem(4 bytes @ 0xE000201C)  returns 0x00 (0014ms, 1374ms total)
T0AD8 026:233 JLINK_ReadReg(R15)  returns 0x0800384A (0000ms, 1388ms total)
T0AD8 026:233 JLINK_ReadReg(XPSR)  returns 0x21000000 (0000ms, 1388ms total)
T0AD8 026:233 JLINK_Step() -- CPU_ReadMem(64 bytes @ 0x08003840) -- Updating C cache (64 bytes @ 0x08003840) -- Read from C cache (2 bytes @ 0x0800384A) -- Not simulated -- CPU_WriteMem(4 bytes @ 0xE0002008) -- CPU_WriteMem(4 bytes @ 0xE000200C) -- CPU_WriteMem(4 bytes @ 0xE0002010) -- CPU_WriteMem(4 bytes @ 0xE0002014) -- CPU_WriteMem(4 bytes @ 0xE0002018) -- CPU_WriteMem(4 bytes @ 0xE000201C)  returns 0x00 (0014ms, 1388ms total)
T0AD8 026:247 JLINK_ReadReg(R15)  returns 0x0800384C (0000ms, 1402ms total)
T0AD8 026:247 JLINK_ReadReg(XPSR)  returns 0x21000000 (0000ms, 1402ms total)
T0AD8 026:247 JLINK_Step() -- CPU_ReadMem(64 bytes @ 0x08003840) -- Updating C cache (64 bytes @ 0x08003840) -- Read from C cache (2 bytes @ 0x0800384C) -- Not simulated -- CPU_WriteMem(4 bytes @ 0xE0002008) -- CPU_WriteMem(4 bytes @ 0xE000200C) -- CPU_WriteMem(4 bytes @ 0xE0002010) -- CPU_WriteMem(4 bytes @ 0xE0002014) -- CPU_WriteMem(4 bytes @ 0xE0002018) -- CPU_WriteMem(4 bytes @ 0xE000201C)  returns 0x00 (0014ms, 1402ms total)
T0AD8 026:261 JLINK_ReadReg(R15)  returns 0x0800384E (0000ms, 1416ms total)
T0AD8 026:261 JLINK_ReadReg(XPSR)  returns 0x21000000 (0000ms, 1416ms total)
T0AD8 026:261 JLINK_ReadReg(R0)  returns 0x00000BF6 (0000ms, 1416ms total)
T0AD8 026:261 JLINK_ReadReg(R1)  returns 0x0800533D (0000ms, 1416ms total)
T0AD8 026:261 JLINK_ReadReg(R2)  returns 0x00000400 (0000ms, 1416ms total)
T0AD8 026:261 JLINK_ReadReg(R3)  returns 0x000000C8 (0000ms, 1416ms total)
T0AD8 026:261 JLINK_ReadReg(R4)  returns 0x00000000 (0000ms, 1416ms total)
T0AD8 026:261 JLINK_ReadReg(R5)  returns 0x00000BF6 (0000ms, 1416ms total)
T0AD8 026:261 JLINK_ReadReg(R6)  returns 0x0800533D (0000ms, 1416ms total)
T0AD8 026:261 JLINK_ReadReg(R7)  returns 0x00000000 (0000ms, 1416ms total)
T0AD8 026:261 JLINK_ReadReg(R8)  returns 0x00000400 (0000ms, 1416ms total)
T0AD8 026:261 JLINK_ReadReg(R9)  returns 0x000000C8 (0000ms, 1416ms total)
T0AD8 026:261 JLINK_ReadReg(R10)  returns 0x08005F54 (0000ms, 1416ms total)
T0AD8 026:261 JLINK_ReadReg(R11)  returns 0x00000000 (0000ms, 1416ms total)
T0AD8 026:261 JLINK_ReadReg(R12)  returns 0x00000300 (0000ms, 1416ms total)
T0AD8 026:261 JLINK_ReadReg(R13)  returns 0x20000678 (0000ms, 1416ms total)
T0AD8 026:261 JLINK_ReadReg(R14)  returns 0x08003B33 (0000ms, 1416ms total)
T0AD8 026:261 JLINK_ReadReg(R15)  returns 0x0800384E (0000ms, 1416ms total)
T0AD8 026:261 JLINK_ReadReg(XPSR)  returns 0x21000000 (0000ms, 1416ms total)
T0AD8 026:261 JLINK_ReadReg(MSP)  returns 0x20000678 (0000ms, 1416ms total)
T0AD8 026:261 JLINK_ReadReg(PSP)  returns 0x20000800 (0001ms, 1416ms total)
T0AD8 026:262 JLINK_ReadReg(CFBP)  returns 0x00000000 (0000ms, 1417ms total)
T0AD8 026:262 JLINK_ReadMem (0x200006A4, 0x0004 Bytes, ...) -- CPU_ReadMem(64 bytes @ 0x20000680) -- Updating C cache (64 bytes @ 0x20000680) -- Read from C cache (4 bytes @ 0x200006A4) -- Data:  33 3B 00 08  returns 0x00 (0001ms, 1417ms total)
T0AD8 026:263 JLINK_ReadMem (0x200006AC, 0x0004 Bytes, ...) -- Read from C cache (4 bytes @ 0x200006AC) -- Data:  C7 03 00 08  returns 0x00 (0000ms, 1418ms total)
T0770 026:263 JLINK_ReadMemU32(0xE0001004, 0x0001 Items, ...) -- CPU_ReadMem(4 bytes @ 0xE0001004) -- Data:  92 CE EA 01  returns 0x01 (0002ms, 1418ms total)
T0770 026:319 JLINK_ReadMem (0x0800384E, 0x0002 Bytes, ...) -- CPU_ReadMem(64 bytes @ 0x08003840) -- Updating C cache (64 bytes @ 0x08003840) -- Read from C cache (2 bytes @ 0x0800384E) -- Data:  19 48  returns 0x00 (0002ms, 1420ms total)
T0770 026:321 JLINK_ReadMem (0x08003850, 0x003C Bytes, ...) -- CPU_ReadMem(64 bytes @ 0x08003880) -- Updating C cache (64 bytes @ 0x08003880) -- Read from C cache (60 bytes @ 0x08003850) -- Data:  90 F8 25 00 20 B1 4F F0 FF 30 05 B0 BD E8 F0 83 ...  returns 0x00 (0002ms, 1422ms total)
T0AD8 027:427 JLINK_Step() -- Read from C cache (2 bytes @ 0x0800384E) -- Not simulated -- CPU_WriteMem(4 bytes @ 0xE0002008) -- CPU_WriteMem(4 bytes @ 0xE000200C) -- CPU_WriteMem(4 bytes @ 0xE0002010) -- CPU_WriteMem(4 bytes @ 0xE0002014) -- CPU_WriteMem(4 bytes @ 0xE0002018) -- CPU_WriteMem(4 bytes @ 0xE000201C)  returns 0x00 (0014ms, 1424ms total)
T0AD8 027:441 JLINK_ReadReg(R15)  returns 0x08003850 (0000ms, 1438ms total)
T0AD8 027:441 JLINK_ReadReg(XPSR)  returns 0x21000000 (0000ms, 1438ms total)
T0AD8 027:441 JLINK_Step() -- CPU_ReadMem(64 bytes @ 0x08003840) -- Updating C cache (64 bytes @ 0x08003840) -- Read from C cache (2 bytes @ 0x08003850) -- Not simulated -- CPU_WriteMem(4 bytes @ 0xE0002008) -- CPU_WriteMem(4 bytes @ 0xE000200C) -- CPU_WriteMem(4 bytes @ 0xE0002010) -- CPU_WriteMem(4 bytes @ 0xE0002014) -- CPU_WriteMem(4 bytes @ 0xE0002018) -- CPU_WriteMem(4 bytes @ 0xE000201C)  returns 0x00 (0014ms, 1438ms total)
T0AD8 027:455 JLINK_ReadReg(R15)  returns 0x08003854 (0000ms, 1452ms total)
T0AD8 027:455 JLINK_ReadReg(XPSR)  returns 0x21000000 (0000ms, 1452ms total)
T0AD8 027:455 JLINK_Step() -- CPU_ReadMem(64 bytes @ 0x08003840) -- Updating C cache (64 bytes @ 0x08003840) -- Read from C cache (2 bytes @ 0x08003854) -- Not simulated -- CPU_WriteMem(4 bytes @ 0xE0002008) -- CPU_WriteMem(4 bytes @ 0xE000200C) -- CPU_WriteMem(4 bytes @ 0xE0002010) -- CPU_WriteMem(4 bytes @ 0xE0002014) -- CPU_WriteMem(4 bytes @ 0xE0002018) -- CPU_WriteMem(4 bytes @ 0xE000201C)  returns 0x00 (0014ms, 1452ms total)
T0AD8 027:469 JLINK_ReadReg(R15)  returns 0x08003860 (0000ms, 1466ms total)
T0AD8 027:469 JLINK_ReadReg(XPSR)  returns 0x21000000 (0000ms, 1466ms total)
T0AD8 027:469 JLINK_ReadReg(R0)  returns 0x00000000 (0000ms, 1466ms total)
T0AD8 027:469 JLINK_ReadReg(R1)  returns 0x0800533D (0000ms, 1466ms total)
T0AD8 027:469 JLINK_ReadReg(R2)  returns 0x00000400 (0000ms, 1466ms total)
T0AD8 027:469 JLINK_ReadReg(R3)  returns 0x000000C8 (0000ms, 1466ms total)
T0AD8 027:469 JLINK_ReadReg(R4)  returns 0x00000000 (0000ms, 1466ms total)
T0AD8 027:469 JLINK_ReadReg(R5)  returns 0x00000BF6 (0000ms, 1466ms total)
T0AD8 027:469 JLINK_ReadReg(R6)  returns 0x0800533D (0000ms, 1466ms total)
T0AD8 027:469 JLINK_ReadReg(R7)  returns 0x00000000 (0000ms, 1466ms total)
T0AD8 027:469 JLINK_ReadReg(R8)  returns 0x00000400 (0000ms, 1466ms total)
T0AD8 027:469 JLINK_ReadReg(R9)  returns 0x000000C8 (0000ms, 1466ms total)
T0AD8 027:469 JLINK_ReadReg(R10)  returns 0x08005F54 (0000ms, 1466ms total)
T0AD8 027:469 JLINK_ReadReg(R11)  returns 0x00000000 (0000ms, 1466ms total)
T0AD8 027:469 JLINK_ReadReg(R12)  returns 0x00000300 (0000ms, 1466ms total)
T0AD8 027:469 JLINK_ReadReg(R13)  returns 0x20000678 (0000ms, 1466ms total)
T0AD8 027:469 JLINK_ReadReg(R14)  returns 0x08003B33 (0000ms, 1466ms total)
T0AD8 027:469 JLINK_ReadReg(R15)  returns 0x08003860 (0000ms, 1466ms total)
T0AD8 027:469 JLINK_ReadReg(XPSR)  returns 0x21000000 (0000ms, 1466ms total)
T0AD8 027:470 JLINK_ReadReg(MSP)  returns 0x20000678 (0000ms, 1467ms total)
T0AD8 027:470 JLINK_ReadReg(PSP)  returns 0x20000800 (0000ms, 1467ms total)
T0AD8 027:470 JLINK_ReadReg(CFBP)  returns 0x00000000 (0000ms, 1467ms total)
T0AD8 027:470 JLINK_ReadMem (0x200006A4, 0x0004 Bytes, ...) -- CPU_ReadMem(64 bytes @ 0x20000680) -- Updating C cache (64 bytes @ 0x20000680) -- Read from C cache (4 bytes @ 0x200006A4) -- Data:  33 3B 00 08  returns 0x00 (0001ms, 1467ms total)
T0AD8 027:471 JLINK_ReadMem (0x200006AC, 0x0004 Bytes, ...) -- Read from C cache (4 bytes @ 0x200006AC) -- Data:  C7 03 00 08  returns 0x00 (0000ms, 1468ms total)
T0770 027:471 JLINK_ReadMemU32(0xE0001004, 0x0001 Items, ...) -- CPU_ReadMem(4 bytes @ 0xE0001004) -- Data:  9A CE EA 01  returns 0x01 (0002ms, 1468ms total)
